
**** 10/30/19 11:43:07 *********** Evaluation PSpice (Nov 1999) **************

 * C:\Users\pal.janos.attila\Desktop\Integ-Sin.sch


 ****     CIRCUIT DESCRIPTION


******************************************************************************




* Schematics Version 9.1 - Web Update 1
* Wed Oct 30 11:19:29 2019



** Analysis setup **
.tran 0ns 1s 0 0.1m
.OP 


* From [PSPICE NETLIST] section of pspiceev.ini:
.lib "nom.lib"

.INC "Integ-Sin.net"

**** INCLUDING Integ-Sin.net ****
* Schematics Netlist *



V_V1         $N_0001 0 10V
V_V2         0 $N_0002 10V
X_U1A         0 $N_0003 $N_0001 $N_0002 integ LM324
R_R3         $N_0004 Be  1k  
V_V3         $N_0005 0 10V
V_V4         0 $N_0006 10V
X_U2A         0 $N_0007 $N_0005 $N_0006 Der LM324
R_R4         Der $N_0007  51k  
C_C2         $N_0004 $N_0007  100n  
R_R1         Be $N_0003  51k  
C_C1         $N_0003 integ  100n  
R_R2         $N_0003 integ  1Meg  
V_V6         Be 0 DC 0 AC 0
+PULSE 2 -2 0 10m 10m 2ns 20m

**** RESUMING Integ-Sin.cir ****
.INC "Integ-Sin.als"



**** INCLUDING Integ-Sin.als ****
* Schematics Aliases *

.ALIASES
V_V1            V1(+=$N_0001 -=0 )
V_V2            V2(+=0 -=$N_0002 )
X_U1A           U1A(+=0 -=$N_0003 V+=$N_0001 V-=$N_0002 OUT=integ )
R_R3            R3(1=$N_0004 2=Be )
V_V3            V3(+=$N_0005 -=0 )
V_V4            V4(+=0 -=$N_0006 )
X_U2A           U2A(+=0 -=$N_0007 V+=$N_0005 V-=$N_0006 OUT=Der )
R_R4            R4(1=Der 2=$N_0007 )
C_C2            C2(1=$N_0004 2=$N_0007 )
R_R1            R1(1=Be 2=$N_0003 )
C_C1            C1(1=$N_0003 2=integ )
R_R2            R2(1=$N_0003 2=integ )
V_V6            V6(+=Be -=0 )
_    _(integ=integ)
_    _(Be=Be)
_    _(Der=Der)
.ENDALIASES


**** RESUMING Integ-Sin.cir ****
.probe


.END

**** 10/30/19 11:43:07 *********** Evaluation PSpice (Nov 1999) **************

 * C:\Users\pal.janos.attila\Desktop\Integ-Sin.sch


 ****     Diode MODEL PARAMETERS


******************************************************************************




               X_U1A.dx        X_U2A.dx        
          IS  800.000000E-18  800.000000E-18 
          RS    1               1            


**** 10/30/19 11:43:07 *********** Evaluation PSpice (Nov 1999) **************

 * C:\Users\pal.janos.attila\Desktop\Integ-Sin.sch


 ****     BJT MODEL PARAMETERS


******************************************************************************




               X_U1A.qx        X_U2A.qx        
               PNP             PNP             
          IS  800.000000E-18  800.000000E-18 
          BF  166.7           166.7          
          NF    1               1            
          BR    1               1            
          NR    1               1            
          CN    2.2             2.2          
           D     .52             .52         


WARNING -- Pulse Period < (Rise Time + Fall Time + Pulse Width) for V_V6
**** 10/30/19 11:43:07 *********** Evaluation PSpice (Nov 1999) **************

 * C:\Users\pal.janos.attila\Desktop\Integ-Sin.sch


 ****     SMALL SIGNAL BIAS SOLUTION       TEMPERATURE =   27.000 DEG C


******************************************************************************



 NODE   VOLTAGE     NODE   VOLTAGE     NODE   VOLTAGE     NODE   VOLTAGE


(   Be)    0.0000  (  Der)    -.0025  (integ)    -.0489  ($N_0001)   10.0000    

($N_0002)  -10.0000                   ($N_0003)-192.0E-06                       

($N_0004)    0.0000                   ($N_0005)   10.0000                       

($N_0006)  -10.0000                   ($N_0007)-192.5E-06                       

(X_U1A.6) 9.149E-06                   (X_U1A.7)    -.0489                       

(X_U1A.8)    -.0489                   (X_U1A.9)    0.0000                       

(X_U2A.6) 389.2E-09                   (X_U2A.7)    -.0025                       

(X_U2A.8)    -.0025                   (X_U2A.9)    0.0000                       

(X_U1A.10)     .6076                  (X_U1A.11)   -9.9602                      

(X_U1A.12)   -9.9604                  (X_U1A.13)     .5937                      

(X_U1A.14)     .5937                  (X_U1A.53)    8.5000                      

(X_U1A.54)   -9.3500                  (X_U1A.90) 901.6E-06                      

(X_U1A.91)   40.0000                  (X_U1A.92)  -40.0000                      

(X_U1A.99)    0.0000                  (X_U2A.10)     .6076                      

(X_U2A.11)   -9.9602                  (X_U2A.12)   -9.9604                      

(X_U2A.13)     .5937                  (X_U2A.14)     .5937                      

(X_U2A.53)    8.5000                  (X_U2A.54)   -9.3500                      

(X_U2A.90)-64.09E-06                  (X_U2A.91)   40.0000                      

(X_U2A.92)  -40.0000                  (X_U2A.99)    0.0000                  




    VOLTAGE SOURCE CURRENTS
    NAME         CURRENT

    V_V1        -2.217E-03
    V_V2        -2.217E-03
    V_V3        -2.217E-03
    V_V4        -2.217E-03
    V_V6        -3.765E-09
    X_U1A.vb     9.149E-11
    X_U1A.vc     8.550E-12
    X_U1A.ve     9.301E-12
    X_U1A.vlim  -4.872E-08
    X_U1A.vlp   -4.000E-11
    X_U1A.vln   -4.000E-11
    X_U2A.vb     3.892E-12
    X_U2A.vc     8.503E-12
    X_U2A.ve     9.349E-12
    X_U2A.vlim  -6.409E-08
    X_U2A.vlp   -4.000E-11
    X_U2A.vln   -4.000E-11

    TOTAL POWER DISSIPATION   8.87E-02  WATTS


**** 10/30/19 11:43:07 *********** Evaluation PSpice (Nov 1999) **************

 * C:\Users\pal.janos.attila\Desktop\Integ-Sin.sch


 ****     OPERATING POINT INFORMATION      TEMPERATURE =   27.000 DEG C


******************************************************************************






**** VOLTAGE-CONTROLLED CURRENT SOURCES


NAME         X_U1A.ga    X_U1A.gcm   X_U2A.ga    X_U2A.gcm 
I-SOURCE     3.613E-08   3.622E-08   3.621E-08   3.622E-08


**** VOLTAGE-CONTROLLED VOLTAGE SOURCES


NAME         X_U1A.egnd  X_U2A.egnd
V-SOURCE     0.000E+00   0.000E+00
I-SOURCE     9.968E-08   1.113E-07


**** CURRENT-CONTROLLED CURRENT SOURCES


NAME         X_U1A.fb    X_U2A.fb  
I-SOURCE     1.942E-03   1.071E-04


**** CURRENT-CONTROLLED VOLTAGE SOURCES


NAME         X_U1A.hlim  X_U2A.hlim
V-SOURCE    -4.872E-05  -6.409E-05
I-SOURCE    -1.803E-15   1.282E-16


**** DIODES


NAME         X_U1A.dc    X_U1A.de    X_U1A.dlp   X_U1A.dln   X_U1A.dp  
MODEL        X_U1A.dx    X_U1A.dx    X_U1A.dx    X_U1A.dx    X_U1A.dx  
ID          -8.55E-12   -9.30E-12   -4.00E-11   -4.00E-11   -2.00E-11 
VD          -8.55E+00   -9.30E+00   -4.00E+01   -4.00E+01   -2.00E+01 
REQ          1.00E+12    1.00E+12    1.00E+12    1.00E+12    1.00E+12 
CAP          0.00E+00    0.00E+00    0.00E+00    0.00E+00    0.00E+00 

NAME         X_U2A.dc    X_U2A.de    X_U2A.dlp   X_U2A.dln   X_U2A.dp  
MODEL        X_U2A.dx    X_U2A.dx    X_U2A.dx    X_U2A.dx    X_U2A.dx  
ID          -8.50E-12   -9.35E-12   -4.00E-11   -4.00E-11   -2.00E-11 
VD          -8.50E+00   -9.35E+00   -4.00E+01   -4.00E+01   -2.00E+01 
REQ          1.00E+12    1.00E+12    1.00E+12    1.00E+12    1.00E+12 
CAP          0.00E+00    0.00E+00    0.00E+00    0.00E+00    0.00E+00 


**** BIPOLAR JUNCTION TRANSISTORS


NAME         X_U1A.q1    X_U1A.q2    X_U2A.q1    X_U2A.q2  
MODEL        X_U1A.qx    X_U1A.qx    X_U2A.qx    X_U2A.qx  
IB          -4.50E-08   -4.47E-08   -4.50E-08   -4.47E-08 
IC          -7.50E-06   -7.46E-06   -7.50E-06   -7.46E-06 
VBE         -5.94E-01   -5.94E-01   -5.94E-01   -5.94E-01 
VBC          9.96E+00    9.96E+00    9.96E+00    9.96E+00 
VCE         -1.06E+01   -1.06E+01   -1.06E+01   -1.06E+01 
BETADC       1.67E+02    1.67E+02    1.67E+02    1.67E+02 
GM           2.90E-04    2.88E-04    2.90E-04    2.88E-04 
RPI          5.75E+05    5.78E+05    5.75E+05    5.78E+05 
RX           0.00E+00    0.00E+00    0.00E+00    0.00E+00 
RO           1.00E+12    1.00E+12    1.00E+12    1.00E+12 
CBE          0.00E+00    0.00E+00    0.00E+00    0.00E+00 
CBC          0.00E+00    0.00E+00    0.00E+00    0.00E+00 
CJS          0.00E+00    0.00E+00    0.00E+00    0.00E+00 
BETAAC       1.67E+02    1.67E+02    1.67E+02    1.67E+02 
CBX/CBX2     0.00E+00    0.00E+00    0.00E+00    0.00E+00 
FT/FT2       4.61E+15    4.59E+15    4.61E+15    4.59E+15 


**** 10/30/19 11:43:07 *********** Evaluation PSpice (Nov 1999) **************

 * C:\Users\pal.janos.attila\Desktop\Integ-Sin.sch


 ****     INITIAL TRANSIENT SOLUTION       TEMPERATURE =   27.000 DEG C


******************************************************************************



 NODE   VOLTAGE     NODE   VOLTAGE     NODE   VOLTAGE     NODE   VOLTAGE


(   Be)    2.0000  (  Der)    -.0025  (integ)   -9.9633  ($N_0001)   10.0000    

($N_0002)  -10.0000                   ($N_0003)    1.4195                       

($N_0004)    2.0000                   ($N_0005)   10.0000                       

($N_0006)  -10.0000                   ($N_0007)-192.5E-06                       

(X_U1A.6)    1.4990                   (X_U1A.7)   -9.9647                       

(X_U1A.8)   -9.9647                   (X_U1A.9)    0.0000                       

(X_U2A.6) 389.1E-09                   (X_U2A.7)    -.0025                       

(X_U2A.8)    -.0025                   (X_U2A.9)    0.0000                       

(X_U1A.10)     .6395                  (X_U1A.11)  -10.0000                      

(X_U1A.12)   -9.9207                  (X_U1A.13)     .6395                      

(X_U1A.14)     .6117                  (X_U1A.53)    8.5000                      

(X_U1A.54)   -9.3500                  (X_U1A.90)    -.0273                      

(X_U1A.91)   40.0000                  (X_U1A.92)  -40.0000                      

(X_U1A.99)    0.0000                  (X_U2A.10)     .6076                      

(X_U2A.11)   -9.9602                  (X_U2A.12)   -9.9604                      

(X_U2A.13)     .5937                  (X_U2A.14)     .5937                      

(X_U2A.53)    8.5000                  (X_U2A.54)   -9.3500                      

(X_U2A.90)-44.95E-06                  (X_U2A.91)   40.0000                      

(X_U2A.92)  -40.0000                  (X_U2A.99)    0.0000                  




    VOLTAGE SOURCE CURRENTS
    NAME         CURRENT

    V_V1        -2.217E-03
    V_V2        -2.201E-03
    V_V3        -2.217E-03
    V_V4        -2.217E-03
    V_V6        -1.138E-05
    X_U1A.vb     1.499E-05
    X_U1A.vc     1.847E-11
    X_U1A.ve    -1.588E-05
    X_U1A.vlim  -2.727E-05
    X_U1A.vlp   -4.003E-11
    X_U1A.vln   -3.998E-11
    X_U2A.vb     3.891E-12
    X_U2A.vc     8.503E-12
    X_U2A.ve     9.349E-12
    X_U2A.vlim  -4.495E-08
    X_U2A.vlp   -4.000E-11
    X_U2A.vln   -4.000E-11

    TOTAL POWER DISSIPATION   8.86E-02  WATTS



          JOB CONCLUDED

          TOTAL JOB TIME             .66
