
**** 10/12/20 12:59:46 *********** Evaluation PSpice (Nov 1999) **************

 * C:\Diak\Sandor Matyas\defferosito.sch


 ****     CIRCUIT DESCRIPTION


******************************************************************************




* Schematics Version 9.1 - Web Update 1
* Wed Oct 09 11:18:45 2019



** Analysis setup **
.tran 0ns 1ms 0 100n
.OP 


* From [PSPICE NETLIST] section of pspiceev.ini:
.lib "nom.lib"

.INC "defferosito.net"

**** INCLUDING defferosito.net ****
* Schematics Netlist *



R_R3         $N_0002 $N_0001  1k  
V_V1         $N_0003 0 5V
V_V2         0 $N_0002 5V
R_R1         $N_0004 $N_0003  1k  
Q_Q1         $N_0004 Ube1 $N_0001 Q2N2222
R_R2         $N_0005 $N_0003  1k  
Q_Q2         $N_0005 Ube2 $N_0001 Q2N2222
V_V5         $N_0006 0 DC 0 AC 0
+SIN 0 50mv 1k 0 0 0
V_V4         $N_0007 $N_0006 DC 0 AC 0
+SIN 0 50mv 10k 0 0 0
V_V6         $N_0007 Ube1 DC 0 AC 0
+SIN 0 50mv 20khz 0 0 0
V_V3         Ube2 0 DC 0 AC 0
+SIN 0 150mv 1k 0 0 0

**** RESUMING defferosito.cir ****
.INC "defferosito.als"



**** INCLUDING defferosito.als ****
* Schematics Aliases *

.ALIASES
R_R3            R3(1=$N_0002 2=$N_0001 )
V_V1            V1(+=$N_0003 -=0 )
V_V2            V2(+=0 -=$N_0002 )
R_R1            R1(1=$N_0004 2=$N_0003 )
Q_Q1            Q1(c=$N_0004 b=Ube1 e=$N_0001 )
R_R2            R2(1=$N_0005 2=$N_0003 )
Q_Q2            Q2(c=$N_0005 b=Ube2 e=$N_0001 )
V_V5            V5(+=$N_0006 -=0 )
V_V4            V4(+=$N_0007 -=$N_0006 )
V_V6            V6(+=$N_0007 -=Ube1 )
V_V3            V3(+=Ube2 -=0 )
_    _(Ube1=Ube1)
_    _(Ube2=Ube2)
.ENDALIASES


**** RESUMING defferosito.cir ****
.probe


.END

**** 10/12/20 12:59:46 *********** Evaluation PSpice (Nov 1999) **************

 * C:\Diak\Sandor Matyas\defferosito.sch


 ****     BJT MODEL PARAMETERS


******************************************************************************




               Q2N2222         
               NPN             
          IS   14.340000E-15 
          BF  255.9          
          NF    1            
         VAF   74.03         
         IKF     .2847       
         ISE   14.340000E-15 
          NE    1.307        
          BR    6.092        
          NR    1            
          RB   10            
          RC    1            
         CJE   22.010000E-12 
         MJE     .377        
         CJC    7.306000E-12 
         MJC     .3416       
          TF  411.100000E-12 
         XTF    3            
         VTF    1.7          
         ITF     .6          
          TR   46.910000E-09 
         XTB    1.5          
          CN    2.42         
           D     .87         


**** 10/12/20 12:59:46 *********** Evaluation PSpice (Nov 1999) **************

 * C:\Diak\Sandor Matyas\defferosito.sch


 ****     SMALL SIGNAL BIAS SOLUTION       TEMPERATURE =   27.000 DEG C


******************************************************************************



 NODE   VOLTAGE     NODE   VOLTAGE     NODE   VOLTAGE     NODE   VOLTAGE


( Ube1)    0.0000  ( Ube2)    0.0000  ($N_0001)    -.6650                       

($N_0002)   -5.0000                   ($N_0003)    5.0000                       

($N_0004)    2.8456                   ($N_0005)    2.8456                       

($N_0006)    0.0000                   ($N_0007)    0.0000                   




    VOLTAGE SOURCE CURRENTS
    NAME         CURRENT

    V_V1        -4.309E-03
    V_V2        -4.335E-03
    V_V5        -1.315E-05
    V_V4        -1.315E-05
    V_V6         1.315E-05
    V_V3        -1.315E-05

    TOTAL POWER DISSIPATION   4.32E-02  WATTS


**** 10/12/20 12:59:46 *********** Evaluation PSpice (Nov 1999) **************

 * C:\Diak\Sandor Matyas\defferosito.sch


 ****     OPERATING POINT INFORMATION      TEMPERATURE =   27.000 DEG C


******************************************************************************






**** BIPOLAR JUNCTION TRANSISTORS


NAME         Q_Q1        Q_Q2      
MODEL        Q2N2222     Q2N2222   
IB           1.32E-05    1.32E-05 
IC           2.15E-03    2.15E-03 
VBE          6.65E-01    6.65E-01 
VBC         -2.85E+00   -2.85E+00 
VCE          3.51E+00    3.51E+00 
BETADC       1.64E+02    1.64E+02 
GM           8.27E-02    8.27E-02 
RPI          2.16E+03    2.16E+03 
RX           1.00E+01    1.00E+01 
RO           3.57E+04    3.57E+04 
CBE          7.09E-11    7.09E-11 
CBC          4.28E-12    4.28E-12 
CJS          0.00E+00    0.00E+00 
BETAAC       1.78E+02    1.78E+02 
CBX/CBX2     0.00E+00    0.00E+00 
FT/FT2       1.75E+08    1.75E+08 


**** 10/12/20 12:59:46 *********** Evaluation PSpice (Nov 1999) **************

 * C:\Diak\Sandor Matyas\defferosito.sch


 ****     INITIAL TRANSIENT SOLUTION       TEMPERATURE =   27.000 DEG C


******************************************************************************



 NODE   VOLTAGE     NODE   VOLTAGE     NODE   VOLTAGE     NODE   VOLTAGE


( Ube1)    0.0000  ( Ube2)    0.0000  ($N_0001)    -.6650                       

($N_0002)   -5.0000                   ($N_0003)    5.0000                       

($N_0004)    2.8456                   ($N_0005)    2.8456                       

($N_0006)    0.0000                   ($N_0007)    0.0000                   




    VOLTAGE SOURCE CURRENTS
    NAME         CURRENT

    V_V1        -4.309E-03
    V_V2        -4.335E-03
    V_V5        -1.315E-05
    V_V4        -1.315E-05
    V_V6         1.315E-05
    V_V3        -1.315E-05

    TOTAL POWER DISSIPATION   4.32E-02  WATTS



          JOB CONCLUDED

          TOTAL JOB TIME            1.14
