
**** 10/02/19 11:07:47 *********** Evaluation PSpice (Nov 1999) **************

 * D:\Egyetem\Alanog eletronika\Analog II\Jelgeneratorok\Fordito erosito.sch


 ****     CIRCUIT DESCRIPTION


******************************************************************************




* Schematics Version 9.1 - Web Update 1
* Wed Oct 02 11:07:27 2019



** Analysis setup **
.tran 0ns 5ms 0 0.005m
.OP 


* From [PSPICE NETLIST] section of pspiceev.ini:
.lib "nom.lib"

.INC "Fordito erosito.net"

**** INCLUDING "Fordito erosito.net" ****
* Schematics Netlist *



R_R3         $N_0002 $N_0001  1k  
R_R1         $N_0003 0  1k  
X_U1A         0 $N_0001 $N_0004 $N_0005 $N_0003 LM324
V_V4         $N_0002 0 DC 0 AC 0
+SIN 0 100m 1k 0 0 0
R_R2         $N_0001 $N_0003  2k  
V_V1         $N_0004 0 5V
V_V2         0 $N_0005 5V

**** RESUMING "Fordito erosito.cir" ****
.INC "Fordito erosito.als"



**** INCLUDING "Fordito erosito.als" ****
* Schematics Aliases *

.ALIASES
R_R3            R3(1=$N_0002 2=$N_0001 )
R_R1            R1(1=$N_0003 2=0 )
X_U1A           U1A(+=0 -=$N_0001 V+=$N_0004 V-=$N_0005 OUT=$N_0003 )
V_V4            V4(+=$N_0002 -=0 )
R_R2            R2(1=$N_0001 2=$N_0003 )
V_V1            V1(+=$N_0004 -=0 )
V_V2            V2(+=0 -=$N_0005 )
.ENDALIASES


**** RESUMING "Fordito erosito.cir" ****
.probe


.END

**** 10/02/19 11:07:47 *********** Evaluation PSpice (Nov 1999) **************

 * D:\Egyetem\Alanog eletronika\Analog II\Jelgeneratorok\Fordito erosito.sch


 ****     Diode MODEL PARAMETERS


******************************************************************************




               X_U1A.dx        
          IS  800.000000E-18 
          RS    1            


**** 10/02/19 11:07:47 *********** Evaluation PSpice (Nov 1999) **************

 * D:\Egyetem\Alanog eletronika\Analog II\Jelgeneratorok\Fordito erosito.sch


 ****     BJT MODEL PARAMETERS


******************************************************************************




               X_U1A.qx        
               PNP             
          IS  800.000000E-18 
          BF  166.7          
          NF    1            
          BR    1            
          NR    1            
          CN    2.2          
           D     .52         


**** 10/02/19 11:07:47 *********** Evaluation PSpice (Nov 1999) **************

 * D:\Egyetem\Alanog eletronika\Analog II\Jelgeneratorok\Fordito erosito.sch


 ****     SMALL SIGNAL BIAS SOLUTION       TEMPERATURE =   27.000 DEG C


******************************************************************************



 NODE   VOLTAGE     NODE   VOLTAGE     NODE   VOLTAGE     NODE   VOLTAGE


($N_0001)-192.1E-06                   ($N_0002)    0.0000                       

($N_0003)-666.3E-06                   ($N_0004)    5.0000                       

($N_0005)   -5.0000                   (X_U1A.6) 7.053E-06                       

(X_U1A.7)    -.0251                   (X_U1A.8)    -.0251                       

(X_U1A.9)    0.0000                   (X_U1A.10)     .6076                      

(X_U1A.11)   -4.9602                  (X_U1A.12)   -4.9604                      

(X_U1A.13)     .5937                  (X_U1A.14)     .5937                      

(X_U1A.53)    3.5000                  (X_U1A.54)   -4.3500                      

(X_U1A.90)    -.4892                  (X_U1A.91)   40.0000                      

(X_U1A.92)  -40.0000                  (X_U1A.99)    0.0000                  




    VOLTAGE SOURCE CURRENTS
    NAME         CURRENT

    V_V4        -1.921E-07
    V_V1        -1.116E-03
    V_V2        -1.116E-03
    X_U1A.vb     7.053E-11
    X_U1A.vc     3.500E-12
    X_U1A.ve     4.350E-12
    X_U1A.vlim  -4.892E-04
    X_U1A.vlp   -4.049E-11
    X_U1A.vln   -3.951E-11

    TOTAL POWER DISSIPATION   1.12E-02  WATTS


**** 10/02/19 11:07:47 *********** Evaluation PSpice (Nov 1999) **************

 * D:\Egyetem\Alanog eletronika\Analog II\Jelgeneratorok\Fordito erosito.sch


 ****     OPERATING POINT INFORMATION      TEMPERATURE =   27.000 DEG C


******************************************************************************






**** VOLTAGE-CONTROLLED CURRENT SOURCES


NAME         X_U1A.ga    X_U1A.gcm 
I-SOURCE     3.615E-08   3.622E-08


**** VOLTAGE-CONTROLLED VOLTAGE SOURCES


NAME         X_U1A.egnd
V-SOURCE     0.000E+00
I-SOURCE     4.892E-04


**** CURRENT-CONTROLLED CURRENT SOURCES


NAME         X_U1A.fb  
I-SOURCE     1.494E-03


**** CURRENT-CONTROLLED VOLTAGE SOURCES


NAME         X_U1A.hlim
V-SOURCE    -4.892E-01
I-SOURCE     9.784E-13


**** DIODES


NAME         X_U1A.dc    X_U1A.de    X_U1A.dlp   X_U1A.dln   X_U1A.dp  
MODEL        X_U1A.dx    X_U1A.dx    X_U1A.dx    X_U1A.dx    X_U1A.dx  
ID          -3.50E-12   -4.35E-12   -4.05E-11   -3.95E-11   -1.00E-11 
VD          -3.50E+00   -4.35E+00   -4.05E+01   -3.95E+01   -1.00E+01 
REQ          1.00E+12    1.00E+12    1.00E+12    1.00E+12    1.00E+12 
CAP          0.00E+00    0.00E+00    0.00E+00    0.00E+00    0.00E+00 


**** BIPOLAR JUNCTION TRANSISTORS


NAME         X_U1A.q1    X_U1A.q2  
MODEL        X_U1A.qx    X_U1A.qx  
IB          -4.50E-08   -4.47E-08 
IC          -7.50E-06   -7.46E-06 
VBE         -5.94E-01   -5.94E-01 
VBC          4.96E+00    4.96E+00 
VCE         -5.55E+00   -5.55E+00 
BETADC       1.67E+02    1.67E+02 
GM           2.90E-04    2.88E-04 
RPI          5.75E+05    5.78E+05 
RX           0.00E+00    0.00E+00 
RO           1.00E+12    1.00E+12 
CBE          0.00E+00    0.00E+00 
CBC          0.00E+00    0.00E+00 
CJS          0.00E+00    0.00E+00 
BETAAC       1.67E+02    1.67E+02 
CBX/CBX2     0.00E+00    0.00E+00 
FT/FT2       4.61E+15    4.59E+15 


**** 10/02/19 11:07:47 *********** Evaluation PSpice (Nov 1999) **************

 * D:\Egyetem\Alanog eletronika\Analog II\Jelgeneratorok\Fordito erosito.sch


 ****     INITIAL TRANSIENT SOLUTION       TEMPERATURE =   27.000 DEG C


******************************************************************************



 NODE   VOLTAGE     NODE   VOLTAGE     NODE   VOLTAGE     NODE   VOLTAGE


($N_0001)-192.5E-06                   ($N_0002)    0.0000                       

($N_0003)-667.4E-06                   ($N_0004)    5.0000                       

($N_0005)   -5.0000                   (X_U1A.6) 58.44E-09                       

(X_U1A.7)-712.7E-06                   (X_U1A.8)-712.7E-06                       

(X_U1A.9)    0.0000                   (X_U1A.10)     .6076                      

(X_U1A.11)   -4.9602                  (X_U1A.12)   -4.9604                      

(X_U1A.13)     .5937                  (X_U1A.14)     .5937                      

(X_U1A.53)    3.5000                  (X_U1A.54)   -4.3500                      

(X_U1A.90)-904.9E-06                  (X_U1A.91)   40.0000                      

(X_U1A.92)  -40.0000                  (X_U1A.99)    0.0000                  




    VOLTAGE SOURCE CURRENTS
    NAME         CURRENT

    V_V4        -1.925E-07
    V_V1        -1.116E-03
    V_V2        -1.116E-03
    X_U1A.vb     5.851E-13
    X_U1A.vc     3.501E-12
    X_U1A.ve     4.350E-12
    X_U1A.vlim  -9.049E-07
    X_U1A.vlp   -4.000E-11
    X_U1A.vln   -4.000E-11

    TOTAL POWER DISSIPATION   1.12E-02  WATTS



          JOB CONCLUDED

          TOTAL JOB TIME             .23
