
**** 10/02/19 10:51:01 *********** Evaluation PSpice (Nov 1999) **************

 * D:\Egyetem\Alanog eletronika\Analog II\Jelgeneratorok\Schematic1.sch


 ****     CIRCUIT DESCRIPTION


******************************************************************************




* Schematics Version 9.1 - Web Update 1
* Wed Oct 02 10:50:57 2019



** Analysis setup **
.tran 0ns 5ms
.OP 


* From [PSPICE NETLIST] section of pspiceev.ini:
.lib "nom.lib"

.INC "Schematic1.net"

**** INCLUDING Schematic1.net ****
* Schematics Netlist *



R_R1         $N_0001 0  1k  
R_R2         $N_0002 0  1k  
V_V2         $N_0002 0 DC 0 AC 0
+PULSE 100m -100m 0 1u 1u 500u 1m
R_R3         $N_0003 0  1k  
V_V1         $N_0001 0 DC 0 AC 0
+SIN 0 100m 1k 0 0 0
V_V3         $N_0003 0 DC 0 AC 0
+PULSE 100m -100m 0 499u 499u 2u 1m

**** RESUMING Schematic1.cir ****
.INC "Schematic1.als"



**** INCLUDING Schematic1.als ****
* Schematics Aliases *

.ALIASES
R_R1            R1(1=$N_0001 2=0 )
R_R2            R2(1=$N_0002 2=0 )
V_V2            V2(+=$N_0002 -=0 )
R_R3            R3(1=$N_0003 2=0 )
V_V1            V1(+=$N_0001 -=0 )
V_V3            V3(+=$N_0003 -=0 )
.ENDALIASES


**** RESUMING Schematic1.cir ****
.probe


.END

**** 10/02/19 10:51:01 *********** Evaluation PSpice (Nov 1999) **************

 * D:\Egyetem\Alanog eletronika\Analog II\Jelgeneratorok\Schematic1.sch


 ****     SMALL SIGNAL BIAS SOLUTION       TEMPERATURE =   27.000 DEG C


******************************************************************************



 NODE   VOLTAGE     NODE   VOLTAGE     NODE   VOLTAGE     NODE   VOLTAGE


($N_0001)    0.0000                   ($N_0002)    0.0000                       

($N_0003)    0.0000                   




    VOLTAGE SOURCE CURRENTS
    NAME         CURRENT

    V_V2         0.000E+00
    V_V1         0.000E+00
    V_V3         0.000E+00

    TOTAL POWER DISSIPATION   0.00E+00  WATTS


**** 10/02/19 10:51:01 *********** Evaluation PSpice (Nov 1999) **************

 * D:\Egyetem\Alanog eletronika\Analog II\Jelgeneratorok\Schematic1.sch


 ****     OPERATING POINT INFORMATION      TEMPERATURE =   27.000 DEG C


******************************************************************************




**** 10/02/19 10:51:01 *********** Evaluation PSpice (Nov 1999) **************

 * D:\Egyetem\Alanog eletronika\Analog II\Jelgeneratorok\Schematic1.sch


 ****     INITIAL TRANSIENT SOLUTION       TEMPERATURE =   27.000 DEG C


******************************************************************************



 NODE   VOLTAGE     NODE   VOLTAGE     NODE   VOLTAGE     NODE   VOLTAGE


($N_0001)    0.0000                   ($N_0002)     .1000                       

($N_0003)     .1000                   




    VOLTAGE SOURCE CURRENTS
    NAME         CURRENT

    V_V2        -1.000E-04
    V_V1         0.000E+00
    V_V3        -1.000E-04

    TOTAL POWER DISSIPATION   2.00E-05  WATTS



          JOB CONCLUDED

          TOTAL JOB TIME             .05
