
**** 10/16/19 11:37:55 *********** Evaluation PSpice (Nov 1999) **************

 * C:\diak\HMR\Analog2\osszeado erosito.sch


 ****     CIRCUIT DESCRIPTION


******************************************************************************




* Schematics Version 9.1 - Web Update 1
* Wed Oct 16 11:37:52 2019



** Analysis setup **
.tran 50n 1000ns
.OP 


* From [PSPICE NETLIST] section of pspiceev.ini:
.lib "nom.lib"

.INC "osszeado erosito.net"

**** INCLUDING "osszeado erosito.net" ****
* Schematics Netlist *



V_V5         $N_0001 0 5V
V_V4         $N_0002 0 4V
V_V3         $N_0003 0 3V
V_V2         $N_0004 0 2V
V_V1         $N_0005 0 1V
V_V6         $N_0006 0 6V
R_R7         $N_0006 Be+  1k  
R_R6         $N_0001 Be+  1k  
R_R5         $N_0002 Be+  1k  
R_R3         $N_0004 $N_0007  1k  
R_R2         $N_0005 $N_0007  1k  
X_U1A         Be+ $N_0007 $N_0008 $N_0009 Ki LM324
V_V8         0 $N_0009 25V
V_V7         $N_0008 0 25V
R_R1         $N_0007 Ki  1k  
R_R8         0 Be+  1k  
R_R4         $N_0003 $N_0007  1k  

**** RESUMING "osszeado erosito.cir" ****
.INC "osszeado erosito.als"



**** INCLUDING "osszeado erosito.als" ****
* Schematics Aliases *

.ALIASES
V_V5            V5(+=$N_0001 -=0 )
V_V4            V4(+=$N_0002 -=0 )
V_V3            V3(+=$N_0003 -=0 )
V_V2            V2(+=$N_0004 -=0 )
V_V1            V1(+=$N_0005 -=0 )
V_V6            V6(+=$N_0006 -=0 )
R_R7            R7(1=$N_0006 2=Be+ )
R_R6            R6(1=$N_0001 2=Be+ )
R_R5            R5(1=$N_0002 2=Be+ )
R_R3            R3(1=$N_0004 2=$N_0007 )
R_R2            R2(1=$N_0005 2=$N_0007 )
X_U1A           U1A(+=Be+ -=$N_0007 V+=$N_0008 V-=$N_0009 OUT=Ki )
V_V8            V8(+=0 -=$N_0009 )
V_V7            V7(+=$N_0008 -=0 )
R_R1            R1(1=$N_0007 2=Ki )
R_R8            R8(1=0 2=Be+ )
R_R4            R4(1=$N_0003 2=$N_0007 )
_    _(Be+=Be+)
_    _(Ki=Ki)
.ENDALIASES


**** RESUMING "osszeado erosito.cir" ****
.probe


.END

**** 10/16/19 11:37:55 *********** Evaluation PSpice (Nov 1999) **************

 * C:\diak\HMR\Analog2\osszeado erosito.sch


 ****     Diode MODEL PARAMETERS


******************************************************************************




               X_U1A.dx        
          IS  800.000000E-18 
          RS    1            


**** 10/16/19 11:37:55 *********** Evaluation PSpice (Nov 1999) **************

 * C:\diak\HMR\Analog2\osszeado erosito.sch


 ****     BJT MODEL PARAMETERS


******************************************************************************




               X_U1A.qx        
               PNP             
          IS  800.000000E-18 
          BF  166.7          
          NF    1            
          BR    1            
          NR    1            
          CN    2.2          
           D     .52         


**** 10/16/19 11:37:55 *********** Evaluation PSpice (Nov 1999) **************

 * C:\diak\HMR\Analog2\osszeado erosito.sch


 ****     SMALL SIGNAL BIAS SOLUTION       TEMPERATURE =   27.000 DEG C


******************************************************************************



 NODE   VOLTAGE     NODE   VOLTAGE     NODE   VOLTAGE     NODE   VOLTAGE


(   Ki)    8.9940  (  Be+)    3.7500  ($N_0001)    5.0000                       

($N_0002)    4.0000                   ($N_0003)    3.0000                       

($N_0004)    2.0000                   ($N_0005)    1.0000                       

($N_0006)    6.0000                   ($N_0007)    3.7485                       

($N_0008)   25.0000                   ($N_0009)  -25.0000                       

(X_U1A.6)    -.0018                   (X_U1A.7)    9.2563                       

(X_U1A.8)    9.2563                   (X_U1A.9)    0.0000                       

(X_U1A.10)    4.3562                  (X_U1A.11)  -24.9600                      

(X_U1A.12)  -24.9620                  (X_U1A.13)    4.3423                      

(X_U1A.14)    4.3428                  (X_U1A.53)   23.5000                      

(X_U1A.54)  -24.3500                  (X_U1A.90)    5.2455                      

(X_U1A.91)   40.0000                  (X_U1A.92)  -40.0000                      

(X_U1A.99)    0.0000                  




    VOLTAGE SOURCE CURRENTS
    NAME         CURRENT

    V_V5        -1.250E-03
    V_V4        -2.500E-04
    V_V3         7.485E-04
    V_V2         1.749E-03
    V_V1         2.749E-03
    V_V6        -2.250E-03
    V_V8        -5.520E-03
    V_V7        -5.520E-03
    X_U1A.vb    -1.772E-08
    X_U1A.vc     1.451E-11
    X_U1A.ve     3.335E-11
    X_U1A.vlim   5.246E-03
    X_U1A.vlp   -3.476E-11
    X_U1A.vln   -4.525E-11

    TOTAL POWER DISSIPATION   2.88E-01  WATTS


**** 10/16/19 11:37:55 *********** Evaluation PSpice (Nov 1999) **************

 * C:\diak\HMR\Analog2\osszeado erosito.sch


 ****     OPERATING POINT INFORMATION      TEMPERATURE =   27.000 DEG C


******************************************************************************






**** VOLTAGE-CONTROLLED CURRENT SOURCES


NAME         X_U1A.ga    X_U1A.gcm 
I-SOURCE     2.774E-07   2.597E-07


**** VOLTAGE-CONTROLLED VOLTAGE SOURCES


NAME         X_U1A.egnd
V-SOURCE     0.000E+00
I-SOURCE    -5.245E-03


**** CURRENT-CONTROLLED CURRENT SOURCES


NAME         X_U1A.fb  
I-SOURCE    -3.754E-01


**** CURRENT-CONTROLLED VOLTAGE SOURCES


NAME         X_U1A.hlim
V-SOURCE     5.246E+00
I-SOURCE    -1.049E-11


**** DIODES


NAME         X_U1A.dc    X_U1A.de    X_U1A.dlp   X_U1A.dln   X_U1A.dp  
MODEL        X_U1A.dx    X_U1A.dx    X_U1A.dx    X_U1A.dx    X_U1A.dx  
ID          -1.45E-11   -3.33E-11   -3.48E-11   -4.52E-11   -5.00E-11 
VD          -1.45E+01   -3.33E+01   -3.48E+01   -4.52E+01   -5.00E+01 
REQ          1.00E+12    1.00E+12    1.00E+12    1.00E+12    1.00E+12 
CAP          0.00E+00    0.00E+00    0.00E+00    0.00E+00    0.00E+00 


**** BIPOLAR JUNCTION TRANSISTORS


NAME         X_U1A.q1    X_U1A.q2  
MODEL        X_U1A.qx    X_U1A.qx  
IB          -4.48E-08   -4.32E-08 
IC          -7.48E-06   -7.20E-06 
VBE         -5.94E-01   -5.93E-01 
VBC          2.87E+01    2.87E+01 
VCE         -2.93E+01   -2.93E+01 
BETADC       1.67E+02    1.67E+02 
GM           2.89E-04    2.78E-04 
RPI          5.77E+05    5.99E+05 
RX           0.00E+00    0.00E+00 
RO           1.00E+12    1.00E+12 
CBE          0.00E+00    0.00E+00 
CBC          0.00E+00    0.00E+00 
CJS          0.00E+00    0.00E+00 
BETAAC       1.67E+02    1.67E+02 
CBX/CBX2     0.00E+00    0.00E+00 
FT/FT2       4.60E+15    4.43E+15 


**** 10/16/19 11:37:55 *********** Evaluation PSpice (Nov 1999) **************

 * C:\diak\HMR\Analog2\osszeado erosito.sch


 ****     INITIAL TRANSIENT SOLUTION       TEMPERATURE =   27.000 DEG C


******************************************************************************



 NODE   VOLTAGE     NODE   VOLTAGE     NODE   VOLTAGE     NODE   VOLTAGE


(   Ki)    8.9940  (  Be+)    3.7500  ($N_0001)    5.0000                       

($N_0002)    4.0000                   ($N_0003)    3.0000                       

($N_0004)    2.0000                   ($N_0005)    1.0000                       

($N_0006)    6.0000                   ($N_0007)    3.7485                       

($N_0008)   25.0000                   ($N_0009)  -25.0000                       

(X_U1A.6)    -.0018                   (X_U1A.7)    9.2563                       

(X_U1A.8)    9.2563                   (X_U1A.9)    0.0000                       

(X_U1A.10)    4.3562                  (X_U1A.11)  -24.9600                      

(X_U1A.12)  -24.9620                  (X_U1A.13)    4.3423                      

(X_U1A.14)    4.3428                  (X_U1A.53)   23.5000                      

(X_U1A.54)  -24.3500                  (X_U1A.90)    5.2455                      

(X_U1A.91)   40.0000                  (X_U1A.92)  -40.0000                      

(X_U1A.99)    0.0000                  




    VOLTAGE SOURCE CURRENTS
    NAME         CURRENT

    V_V5        -1.250E-03
    V_V4        -2.500E-04
    V_V3         7.485E-04
    V_V2         1.749E-03
    V_V1         2.749E-03
    V_V6        -2.250E-03
    V_V8        -5.520E-03
    V_V7        -5.520E-03
    X_U1A.vb    -1.772E-08
    X_U1A.vc     1.451E-11
    X_U1A.ve     3.335E-11
    X_U1A.vlim   5.246E-03
    X_U1A.vlp   -3.476E-11
    X_U1A.vln   -4.525E-11

    TOTAL POWER DISSIPATION   2.88E-01  WATTS



          JOB CONCLUDED

          TOTAL JOB TIME             .02
